
**** 04/26/18 23:19:36 ******* PSpice Lite (March 2016) ******* ID# 10813 ****

 ** Profile: "SCHEMATIC1-classB"  [ C:\codingpractice\Orcad\classB-PSpiceFiles\SCHEMATIC1\classB.sim ] 


 ****     CIRCUIT DESCRIPTION


******************************************************************************




** Creating circuit file "classB.cir" 
** WARNING: THIS AUTOMATICALLY GENERATED FILE MAY BE OVERWRITTEN BY SUBSEQUENT SIMULATIONS

*Libraries: 
* Profile Libraries :
* Local Libraries :
* From [PSPICE NETLIST] section of C:\Users\Atulya\AppData\Roaming\SPB_Data\cdssetup\OrCAD_PSpice\17.2.0\PSpice.ini file:
.lib "nomd.lib" 

*Analysis directives: 
.TRAN  0 3ms 0 100ns 
.OPTIONS ADVCONV
.PROBE64 V(alias(*)) I(alias(*)) W(alias(*)) D(alias(*)) NOISE(alias(*)) 
.INC "..\SCHEMATIC1.net" 



**** INCLUDING SCHEMATIC1.net ****
* source CLASSB
Q_Q1         N00481 N00358 N00436 Q2N3716
Q_Q2         N00493 N00358 N00436 Q2N4918
R_R1         N00436 0  1k TC=0,0 
V_V1         N00358 0  
+SIN 0 5V 1k 0 0 0
V_V2         N00481 0 8Vdc
V_V3         0 N00493 8Vdc

**** RESUMING classB.cir ****
.END

**** 04/26/18 23:19:36 ******* PSpice Lite (March 2016) ******* ID# 10813 ****

 ** Profile: "SCHEMATIC1-classB"  [ C:\codingpractice\Orcad\classB-PSpiceFiles\SCHEMATIC1\classB.sim ] 


 ****     BJT MODEL PARAMETERS


******************************************************************************




               Q2N3716         Q2N4918         
               NPN             PNP             
       LEVEL    1               1            
          IS    2.045956E-12   51.230000E-15 
          BF  263.48          434.1          
          NF     .988408        1            
         VAF  156.2455        100            
         IKF    9.89             .3883       
         ISE    2.026827E-12   51.230000E-15 
          NE    1.234354        1.22         
          BR    7.088558       55.47         
          NR     .97022         1            
         VAR   73.803                        
         IKR    1.8            10.87         
         ISC    1.494404E-09   51.230000E-15 
          NC    1.515306        1.205        
          NK                     .5544       
         ISS    0               0            
          RB   16.918            .1          
         RBM     .0208                       
         IRB     .0132                       
          RE    2.731568E-03    0            
          RC     .189            .3443       
         CJE  825.767300E-12  179.900000E-12 
         VJE     .626702         .75         
         MJE     .383789         .4294       
         CJC  412.487100E-12  136.900000E-12 
         VJC     .427344         .75         
         MJC     .40638          .3155       
        XCJC    1               1            
         CJS    0               0            
         VJS     .75             .75         
          FC     .844775                     
          TF   24.140000E-09   13.050000E-09 
         XTF    1.833           1.573        
         VTF    2              10            
         ITF   13               6.85         
         PTF   10.80642                      
          TR  366.657000E-09   20.250000E-09 
         XTB    1.7695          2.2          
         XTI     .415                        
          KF    0               0            
          AF    1               1            
          CN    2.42            2.2          
           D     .87             .52         


**** 04/26/18 23:19:36 ******* PSpice Lite (March 2016) ******* ID# 10813 ****

 ** Profile: "SCHEMATIC1-classB"  [ C:\codingpractice\Orcad\classB-PSpiceFiles\SCHEMATIC1\classB.sim ] 


 ****     INITIAL TRANSIENT SOLUTION       TEMPERATURE =   27.000 DEG C


******************************************************************************



 NODE   VOLTAGE     NODE   VOLTAGE     NODE   VOLTAGE     NODE   VOLTAGE


(N00358)    0.0000 (N00436) 1.865E-09 (N00481)    8.0000 (N00493)   -8.0000 




    VOLTAGE SOURCE CURRENTS
    NAME         CURRENT

    V_V1         1.496E-09
    V_V2        -1.506E-09
    V_V3        -8.892E-12

    TOTAL POWER DISSIPATION   1.21E-08  WATTS



          JOB CONCLUDED

**** 04/26/18 23:19:36 ******* PSpice Lite (March 2016) ******* ID# 10813 ****

 ** Profile: "SCHEMATIC1-classB"  [ C:\codingpractice\Orcad\classB-PSpiceFiles\SCHEMATIC1\classB.sim ] 


 ****     JOB STATISTICS SUMMARY


******************************************************************************



  Total job time (using Solver 1)   =         .25
