
**** 04/26/18 23:33:56 ******* PSpice Lite (March 2016) ******* ID# 10813 ****

 ** Profile: "SCHEMATIC1-classAB"  [ C:\codingpractice\Orcad\classAB-PSpiceFiles\SCHEMATIC1\classAB.sim ] 


 ****     CIRCUIT DESCRIPTION


******************************************************************************




** Creating circuit file "classAB.cir" 
** WARNING: THIS AUTOMATICALLY GENERATED FILE MAY BE OVERWRITTEN BY SUBSEQUENT SIMULATIONS

*Libraries: 
* Profile Libraries :
* Local Libraries :
* From [PSPICE NETLIST] section of C:\Users\Atulya\AppData\Roaming\SPB_Data\cdssetup\OrCAD_PSpice\17.2.0\PSpice.ini file:
.lib "nomd.lib" 

*Analysis directives: 
.TRAN  0 3ms 0 100ns 
.OPTIONS ADVCONV
.PROBE64 V(alias(*)) I(alias(*)) W(alias(*)) D(alias(*)) NOISE(alias(*)) 
.INC "..\SCHEMATIC1.net" 



**** INCLUDING SCHEMATIC1.net ****
* source CLASSAB
Q_Q1         N00361 N00424 N00285 Q2N1893
Q_Q2         0 N00451 N00293 Q2N4919
V_V1         N00361 0 12Vdc
R_R1         N00424 N00361  580 TC=0,0 
R_R2         N00293 N00289  2.2k TC=0,0 
R_R3         N00289 N00285  2.2k TC=0,0 
R_R4         0 N00313  10k TC=0,0 
R_R5         0 N00451  580 TC=0,0 
X_D1         N00424 N00447 D1N4500 
X_D2         N00447 N00451 D1N4500 
C_C1         N00532 N00451  100u  TC=0,0 
C_C2         N00289 N00313  100u  TC=0,0 
V_V2         N00532 0  
+SIN 0 3V 1k 0 0 0

**** RESUMING classAB.cir ****
.END

**** 04/26/18 23:33:56 ******* PSpice Lite (March 2016) ******* ID# 10813 ****

 ** Profile: "SCHEMATIC1-classAB"  [ C:\codingpractice\Orcad\classAB-PSpiceFiles\SCHEMATIC1\classAB.sim ] 


 ****     Diode MODEL PARAMETERS


******************************************************************************




               X_D1.DFWD       X_D1.DXTRA      X_D1.DLEAK      X_D2.DFWD       
          IS   71.949420E-15   68.819730E-12    5.810722E-15   71.949420E-15 
           N     .960183        2.15458       180.584            .960183     
         ISR   96.498840E-15                                   96.498840E-15 
          NR    1.82557                                         1.82557      
         IKF  237.528000E-06     .053136                      237.528000E-06 
          BV   86.542         100.000000E+03  100.000000E+03   86.542        
         IBV     .3447          1.000000E-03    1.000000E-03     .3447       
          RS     .236317         .028472         .1              .236317     
          TT    6.656200E-09                                    6.656200E-09 
         CJO    4.000000E-12                                    4.000000E-12 
          VJ     .75                                             .75         
           M     .3333                                           .3333       


               X_D2.DXTRA      X_D2.DLEAK      
          IS   68.819730E-12    5.810722E-15 
           N    2.15458       180.584        
         IKF     .053136                     
          BV  100.000000E+03  100.000000E+03 
         IBV    1.000000E-03    1.000000E-03 
          RS     .028472         .1          


**** 04/26/18 23:33:56 ******* PSpice Lite (March 2016) ******* ID# 10813 ****

 ** Profile: "SCHEMATIC1-classAB"  [ C:\codingpractice\Orcad\classAB-PSpiceFiles\SCHEMATIC1\classAB.sim ] 


 ****     BJT MODEL PARAMETERS


******************************************************************************




               Q2N1893         Q2N4919         
               NPN             PNP             
       LEVEL    1               1            
          IS    2.079000E-15   51.230000E-15 
          BF  167.2           434.1          
          NF    1               1            
         VAF  100             100            
         IKF    1.088            .3883       
         ISE   24.360000E-15   51.230000E-15 
          NE    1.357           1.22         
          BR    1.502          55.47         
          NR    1               1            
         IKR     .3028         10.87         
         ISC  264.600000E-15   51.230000E-15 
          NC    1.545           1.205        
          NK     .8271           .5544       
         ISS    0               0            
          RB                     .1          
          RE    0               0            
          RC     .9069           .3443       
         CJE   58.120000E-12  179.900000E-12 
         VJE     .5              .75         
         MJE     .441            .4294       
         CJC   45.290000E-12  136.900000E-12 
         VJC     .5              .75         
         MJC     .31             .3155       
        XCJC    1               1            
         CJS    0               0            
         VJS     .75             .75         
          TF  738.100000E-12   13.050000E-09 
         XTF   24.93            1.573        
         VTF   10              10            
         ITF    2.376           6.85         
          TR    1.000000E-06   20.250000E-09 
         XTB    1.5             2.2          
          KF    0               0            
          AF    1               1            
          CN    2.42            2.2          
           D     .87             .52         


**** 04/26/18 23:33:56 ******* PSpice Lite (March 2016) ******* ID# 10813 ****

 ** Profile: "SCHEMATIC1-classAB"  [ C:\codingpractice\Orcad\classAB-PSpiceFiles\SCHEMATIC1\classAB.sim ] 


 ****     INITIAL TRANSIENT SOLUTION       TEMPERATURE =   27.000 DEG C


******************************************************************************



 NODE   VOLTAGE     NODE   VOLTAGE     NODE   VOLTAGE     NODE   VOLTAGE


(N00285)    6.1038 (N00289)    5.9586 (N00293)    5.8133 (N00313)    0.0000     

(N00361)   12.0000 (N00424)    6.7273 (N00447)    6.0000 (N00451)    5.2727     

(N00532)    0.0000 




    VOLTAGE SOURCE CURRENTS
    NAME         CURRENT

    V_V1        -9.155E-03
    V_V2         0.000E+00

    TOTAL POWER DISSIPATION   1.10E-01  WATTS



          JOB CONCLUDED

**** 04/26/18 23:33:56 ******* PSpice Lite (March 2016) ******* ID# 10813 ****

 ** Profile: "SCHEMATIC1-classAB"  [ C:\codingpractice\Orcad\classAB-PSpiceFiles\SCHEMATIC1\classAB.sim ] 


 ****     JOB STATISTICS SUMMARY


******************************************************************************



  Total job time (using Solver 1)   =         .41
